T0194 8363:572 SEGGER J-Link V4.96d Log File (0001ms, 4568ms total)
T0194 8363:572 DLL Compiled: Jan 29 2015 11:45:37 (0001ms, 4568ms total)
T0194 8363:572 Logging started @ 2019-07-16 14:55 (0001ms, 4568ms total)
T0194 8363:573 JLINK_SetWarnOutHandler(...) (0000ms, 4568ms total)
T0194 8363:573 JLINK_OpenEx(...)
Firmware: J-Link ARM-OB STM32 compiled Aug 22 2012 19:52:04
Hardware: V7.00
S/N: 20090928
Feature(s): RDI,FlashDL,FlashBP,JFlash,GDBFull  returns O.K. (0275ms, 4843ms total)
T0194 8363:848 JLINK_GetEmuCaps()  returns 0x88EA5833 (0000ms, 4843ms total)
T0194 8363:849 JLINK_TIF_GetAvailable(...) (0000ms, 4843ms total)
T0194 8363:850 JLINK_SetErrorOutHandler(...) (0000ms, 4843ms total)
T0194 8363:850 JLINK_ExecCommand("ProjectFile = "C:\Users\Player\Desktop\Summer_Grand_Operation_Database\Winter_Proj_ARM_407\ADF4351DEMO\USER\JLinkSettings.ini"", ...)  returns 0x00 (0001ms, 4844ms total)
T0194 8363:851 JLINK_ExecCommand("Device = STM32F407ZG", ...)Device "STM32F407ZG" selected.  returns 0x00 (0003ms, 4847ms total)
T0194 8363:854 JLINK_ExecCommand("DisableConnectionTimeout", ...)  returns 0x01 (0000ms, 4847ms total)
T0194 8363:854 JLINK_GetHardwareVersion()  returns 0x11170 (0000ms, 4847ms total)
T0194 8363:854 JLINK_GetDLLVersion()  returns 49604 (0000ms, 4847ms total)
T0194 8363:854 JLINK_GetFirmwareString(...) (0000ms, 4847ms total)
T0194 8363:854 JLINK_GetDLLVersion()  returns 49604 (0000ms, 4847ms total)
T0194 8363:854 JLINK_GetCompileDateTime() (0001ms, 4848ms total)
T0194 8363:855 JLINK_GetFirmwareString(...) (0000ms, 4848ms total)
T0194 8363:855 JLINK_GetHardwareVersion()  returns 0x11170 (0000ms, 4848ms total)
T0194 8363:855 JLINK_TIF_Select(JLINKARM_TIF_SWD)  returns 0x00 (0001ms, 4849ms total)
T0194 8363:856 JLINK_SetSpeed(5000) (0000ms, 4849ms total)
T0194 8363:856 JLINK_GetId() >0x108 TIF>Found SWD-DP with ID 0x2BA01477 >0x0D TIF> >0x28 TIF> >0x0D TIF> >0x28 TIF> >0x0D TIF> >0x21 TIF> >0x0D TIF> >0x28 TIF> >0x0D TIF> >0x28 TIF> >0x0D TIF> >0x28 TIF> >0x0D TIF> >0x21 TIF> >0x0D TIF> >0x21 TIF> >0x0D TIF> >0x28 TIF> >0x0D TIF> >0x21 TIF> >0x0D TIF> >0x21 TIF> >0x0D TIF> >0x28 TIF> >0x0D TIF> >0x21 TIF> >0x0D TIF> >0x21 TIF> >0x108 TIF>Found SWD-DP with ID 0x2BA01477 >0x0D TIF> >0x21 TIF> >0x0D TIF> >0x28 TIF> >0x0D TIF> >0x28 TIF> >0x0D TIF>
 >0x21 TIF> >0x0D TIF> >0x28 TIF> >0x0D TIF> >0x21 TIF> >0x0D TIF> >0x21 TIF> >0x0D TIF> >0x21 TIF> >0x0D TIF> >0x21 TIF> >0x0D TIF> >0x28 TIF> >0x0D TIF> >0x28 TIF> >0x0D TIF> >0x21 TIF> >0x0D TIF> >0x28 TIF> >0x0D TIF> >0x28 TIF> >0x0D TIF> >0x28 TIF> >0x0D TIF> >0x21 TIF> >0x0D TIF> >0x21 TIF> >0x0D TIF> >0x28 TIF> >0x0D TIF> >0x21 TIF> >0x0D TIF> >0x21 TIF>Found Cortex-M4 r0p1, Little endian. -- CPU_WriteMem(4 bytes @ 0xE0002000) -- CPU_ReadMem(4 bytes @ 0xE000EDF0)
 -- CPU_ReadMem(4 bytes @ 0xE0002000)FPUnit: 6 code (BP) slots and 2 literal slots -- CPU_ReadMem(4 bytes @ 0xE000EDFC) -- CPU_ReadMem(4 bytes @ 0xE0001000) -- CPU_WriteMem(4 bytes @ 0xE0001000) -- CPU_ReadMem(4 bytes @ 0xE000ED88) -- CPU_WriteMem(4 bytes @ 0xE000ED88) -- CPU_ReadMem(4 bytes @ 0xE000ED88) -- CPU_WriteMem(4 bytes @ 0xE000ED88) -- CPU_ReadMem(4 bytes @ 0xE00FF010)TPIU fitted. -- CPU_ReadMem(4 bytes @ 0xE00FF014)ETM fitted. -- CPU_ReadMem(4 bytes @ 0xE00FF018) >0x0D TIF> >0x21 TIF>
  returns 0x2BA01477 (0037ms, 4886ms total)
T0194 8363:893 JLINK_GetDLLVersion()  returns 49604 (0000ms, 4886ms total)
T0194 8363:893 JLINK_CORE_GetFound()  returns 0xE0000FF (0000ms, 4886ms total)
T0194 8363:893 JLINK_GetDebugInfo(0x100) -- Value=0xE00FF003  returns 0x00 (0000ms, 4886ms total)
T0194 8363:893 JLINK_GetDebugInfo(0x100) -- Value=0xE00FF003  returns 0x00 (0000ms, 4886ms total)
T0194 8363:893 JLINK_GetDebugInfo(0x101)  returns 0xFFFFFFFF (0000ms, 4886ms total)
T0194 8363:893 JLINK_ReadMemEx(0xE0041FF0, 0x0010 Bytes, ..., AccessWidth = 33554436) -- CPU is running -- CPU_ReadMem(16 bytes @ 0xE0041FF0) - Data: 0D 00 00 00 90 00 00 00 05 00 00 00 B1 00 00 00  returns 0x10 (0000ms, 4886ms total)
T0194 8363:893 JLINK_ReadMemEx(0xE0041FD0, 0x0020 Bytes, ..., AccessWidth = 33554436) -- CPU is running -- CPU_ReadMem(32 bytes @ 0xE0041FD0) - Data: 04 00 00 00 00 00 00 00 00 00 00 00 00 00 00 00 ...  returns 0x20 (0001ms, 4887ms total)
T0194 8363:894 JLINK_GetDebugInfo(0x102)  returns 0xFFFFFFFF (0000ms, 4887ms total)
T0194 8363:894 JLINK_GetDebugInfo(0x103)  returns 0xFFFFFFFF (0000ms, 4887ms total)
T0194 8363:894 JLINK_ReadMemEx(0xE0040FF0, 0x0010 Bytes, ..., AccessWidth = 33554436) -- CPU is running -- CPU_ReadMem(16 bytes @ 0xE0040FF0) - Data: 0D 00 00 00 90 00 00 00 05 00 00 00 B1 00 00 00  returns 0x10 (0001ms, 4888ms total)
T0194 8363:895 JLINK_GetDebugInfo(0x104)  returns 0xFFFFFFFF (0000ms, 4888ms total)
T0194 8363:895 JLINK_GetDebugInfo(0x105)  returns 0xFFFFFFFF (0000ms, 4888ms total)
T0194 8363:895 JLINK_GetDebugInfo(0x106)  returns 0xFFFFFFFF (0000ms, 4888ms total)
T0194 8363:895 JLINK_GetDebugInfo(0x107)  returns 0xFFFFFFFF (0000ms, 4888ms total)
T0194 8363:895 JLINK_GetDebugInfo(0x10C)  returns 0xFFFFFFFF (0000ms, 4888ms total)
T0194 8363:895 JLINK_GetDebugInfo(0x01)  returns 0xFFFFFFFF (0000ms, 4888ms total)
T0194 8363:895 JLINK_GetDeviceFamily()  returns 14 (0000ms, 4888ms total)
T0194 8363:895 JLINK_ReadMemU32(0xE000ED00, 0x0001 Items, ...) -- CPU is running -- CPU_ReadMem(4 bytes @ 0xE000ED00) - Data: 41 C2 0F 41  returns 0x01 (0001ms, 4889ms total)
T0194 8363:896 JLINK_GetDebugInfo(0x10F)  returns 0xFFFFFFFF (0000ms, 4889ms total)
T0194 8363:896 JLINK_SetResetType(JLINKARM_RESET_TYPE_NORMAL)  returns JLINKARM_RESET_TYPE_NORMAL (0000ms, 4889ms total)
T0194 8363:896 JLINK_Reset() -- CPU is running -- CPU_WriteMem(4 bytes @ 0xE000EDF0) -- CPU is running -- CPU_WriteMem(4 bytes @ 0xE000EDFC) >0x35 TIF> -- CPU is running -- CPU_WriteMem(4 bytes @ 0xE000ED0C) -- CPU is running -- CPU_ReadMem(4 bytes @ 0xE000EDF0) -- CPU is running -- CPU_ReadMem(4 bytes @ 0xE000EDF0) -- CPU is running -- CPU_WriteMem(4 bytes @ 0xE000EDF0) -- CPU is running -- CPU_WriteMem(4 bytes @ 0xE000EDFC) -- CPU is running -- CPU_ReadMem(4 bytes @ 0xE000EDF0)
 -- CPU_WriteMem(4 bytes @ 0xE0002000) -- CPU_ReadMem(4 bytes @ 0xE000EDFC) -- CPU_ReadMem(4 bytes @ 0xE0001000) (0018ms, 4907ms total)
T0194 8363:914 JLINK_ReadReg(R15 (PC))  returns 0x08006E24 (0000ms, 4907ms total)
T0194 8363:914 JLINK_ReadReg(XPSR)  returns 0x01000000 (0000ms, 4907ms total)
T0194 8363:914 JLINK_Halt()  returns 0x00 (0000ms, 4907ms total)
T0194 8363:914 JLINK_ReadMemU32(0xE000EDF0, 0x0001 Items, ...) -- CPU_ReadMem(4 bytes @ 0xE000EDF0) - Data: 03 00 03 00  returns 0x01 (0001ms, 4908ms total)
T0194 8363:915 JLINK_WriteU32(0xE000EDF0, 0xA05F0003) -- CPU_WriteMem(4 bytes @ 0xE000EDF0)  returns 0x00 (0001ms, 4909ms total)
T0194 8363:916 JLINK_WriteU32(0xE000EDFC, 0x01000000) -- CPU_WriteMem(4 bytes @ 0xE000EDFC)  returns 0x00 (0000ms, 4909ms total)
T0194 8363:916 JLINK_GetHWStatus(...)  returns 0x00 (0001ms, 4910ms total)
T0194 8363:917 JLINK_GetNumBPUnits(Type = 0xFFFFFF00)  returns 0x06 (0000ms, 4910ms total)
T0194 8363:917 JLINK_GetNumBPUnits(Type = 0xF0)  returns 0x2000 (0000ms, 4910ms total)
T0194 8363:917 JLINK_GetNumWPUnits()  returns 0x04 (0000ms, 4910ms total)
T0194 8363:917 JLINK_GetSpeed()  returns 0xFA0 (0000ms, 4910ms total)
T0194 8363:917 JLINK_ReadMemU32(0xE000E004, 0x0001 Items, ...) -- CPU_ReadMem(4 bytes @ 0xE000E004) - Data: 02 00 00 00  returns 0x01 (0001ms, 4911ms total)
T0194 8363:918 JLINK_ReadMemU32(0xE000E004, 0x0001 Items, ...) -- CPU_ReadMem(4 bytes @ 0xE000E004) - Data: 02 00 00 00  returns 0x01 (0001ms, 4912ms total)
T0194 8363:919 JLINK_WriteMemEx(0xE0001000, 0x001C Bytes, ..., AccessWidth = 33554436) - Data: 01 00 00 00 00 00 00 00 00 00 00 00 00 00 00 00 ... -- CPU_WriteMem(28 bytes @ 0xE0001000)  returns 0x1C (0001ms, 4913ms total)
T0194 8363:920 JLINK_ReadReg(R15 (PC))  returns 0x08006E24 (0001ms, 4914ms total)
T0194 8363:921 JLINK_ReadReg(XPSR)  returns 0x01000000 (0000ms, 4914ms total)
T0194 8363:925 JLINK_ReadMemEx(0xE0001004, 0x0004 Bytes, ..., AccessWidth = 33554432)Mis-aligned memory read: Address: 0xE0001004, NumBytes: 4, Alignment: 2 (Halfword-aligned)
  ***** Mis-aligned memory read: Address: 0xE0001004, NumBytes: 4, Alignment: 2 (Halfword-aligned) -- CPU_ReadMem(4 bytes @ 0xE0001004) - Data: 00 00 00 00  returns 0x04 (0001ms, 4915ms total)
T0194 8364:001 JLINK_SetResetType(JLINKARM_RESET_TYPE_NORMAL)  returns JLINKARM_RESET_TYPE_NORMAL (0000ms, 4915ms total)
T0194 8364:001 JLINK_Reset() -- CPU_WriteMem(4 bytes @ 0xE000EDF0) -- CPU_WriteMem(4 bytes @ 0xE000EDFC) >0x35 TIF> -- CPU_WriteMem(4 bytes @ 0xE000ED0C) -- CPU_ReadMem(4 bytes @ 0xE000EDF0) -- CPU_ReadMem(4 bytes @ 0xE000EDF0) -- CPU_WriteMem(4 bytes @ 0xE000EDF0) -- CPU_WriteMem(4 bytes @ 0xE000EDFC) -- CPU is running -- CPU_ReadMem(4 bytes @ 0xE000EDF0) -- CPU_WriteMem(4 bytes @ 0xE0002000) -- CPU_ReadMem(4 bytes @ 0xE000EDFC) -- CPU_ReadMem(4 bytes @ 0xE0001000) (0020ms, 4935ms total)
T0194 8364:021 JLINK_ReadReg(R15 (PC))  returns 0x08006E24 (0000ms, 4935ms total)
T0194 8364:021 JLINK_ReadReg(XPSR)  returns 0x01000000 (0000ms, 4935ms total)
T0194 8364:029 JLINK_ReadMemEx(0x08006E24, 0x003C Bytes, ..., AccessWidth = 33554432)Mis-aligned memory read: Address: 0x08006E24, NumBytes: 60, Alignment: 2 (Halfword-aligned)
  ***** Mis-aligned memory read: Address: 0x08006E24, NumBytes: 60, Alignment: 2 (Halfword-aligned) -- CPU_ReadMem(128 bytes @ 0x08006E00) -- Updating C cache (128 bytes @ 0x08006E00) -- Read from C cache (60 bytes @ 0x08006E24) - Data: 09 48 80 47 09 48 00 47 FE E7 FE E7 FE E7 FE E7 ...  returns 0x3C (0003ms, 4938ms total)
T0194 8364:032 JLINK_ReadMemEx(0x08006E24, 0x0002 Bytes, ..., AccessWidth = 33554432)Mis-aligned memory read: Address: 0x08006E24, NumBytes: 2, Alignment: 2 (Halfword-aligned)
  ***** Mis-aligned memory read: Address: 0x08006E24, NumBytes: 2, Alignment: 2 (Halfword-aligned) -- Read from C cache (2 bytes @ 0x08006E24) - Data: 09 48  returns 0x02 (0000ms, 4938ms total)
T0194 8364:032 JLINK_ReadMemEx(0x08006E26, 0x0002 Bytes, ..., AccessWidth = 33554432)Mis-aligned memory read: Address: 0x08006E26, NumBytes: 2, Alignment: 2 (Halfword-aligned)
  ***** Mis-aligned memory read: Address: 0x08006E26, NumBytes: 2, Alignment: 2 (Halfword-aligned) -- Read from C cache (2 bytes @ 0x08006E26) - Data: 80 47  returns 0x02 (0000ms, 4938ms total)
T0194 8364:032 JLINK_ReadMemEx(0x08006E26, 0x0002 Bytes, ..., AccessWidth = 33554432)Mis-aligned memory read: Address: 0x08006E26, NumBytes: 2, Alignment: 2 (Halfword-aligned)
  ***** Mis-aligned memory read: Address: 0x08006E26, NumBytes: 2, Alignment: 2 (Halfword-aligned) -- Read from C cache (2 bytes @ 0x08006E26) - Data: 80 47  returns 0x02 (0000ms, 4938ms total)
T0194 8364:032 JLINK_ReadMemEx(0x08006E28, 0x003C Bytes, ..., AccessWidth = 33554432)Mis-aligned memory read: Address: 0x08006E28, NumBytes: 60, Alignment: 2 (Halfword-aligned)
  ***** Mis-aligned memory read: Address: 0x08006E28, NumBytes: 60, Alignment: 2 (Halfword-aligned) -- Read from C cache (60 bytes @ 0x08006E28) - Data: 09 48 00 47 FE E7 FE E7 FE E7 FE E7 FE E7 FE E7 ...  returns 0x3C (0000ms, 4938ms total)
T0194 8364:032 JLINK_ReadMemEx(0x08006E28, 0x0002 Bytes, ..., AccessWidth = 33554432)Mis-aligned memory read: Address: 0x08006E28, NumBytes: 2, Alignment: 2 (Halfword-aligned)
  ***** Mis-aligned memory read: Address: 0x08006E28, NumBytes: 2, Alignment: 2 (Halfword-aligned) -- Read from C cache (2 bytes @ 0x08006E28) - Data: 09 48  returns 0x02 (0000ms, 4938ms total)
T0194 8365:740 JLINK_ReadReg(R0)  returns 0x00000000 (0001ms, 4939ms total)
T0194 8365:741 JLINK_ReadReg(R1)  returns 0x00000000 (0000ms, 4939ms total)
T0194 8365:741 JLINK_ReadReg(R2)  returns 0x00000000 (0000ms, 4939ms total)
T0194 8365:741 JLINK_ReadReg(R3)  returns 0x00000000 (0000ms, 4939ms total)
T0194 8365:741 JLINK_ReadReg(R4)  returns 0x00000000 (0000ms, 4939ms total)
T0194 8365:741 JLINK_ReadReg(R5)  returns 0x00000000 (0000ms, 4939ms total)
T0194 8365:741 JLINK_ReadReg(R6)  returns 0x00000000 (0000ms, 4939ms total)
T0194 8365:741 JLINK_ReadReg(R7)  returns 0x00000000 (0000ms, 4939ms total)
T0194 8365:741 JLINK_ReadReg(R8)  returns 0x00000000 (0000ms, 4939ms total)
T0194 8365:741 JLINK_ReadReg(R9)  returns 0x00000000 (0000ms, 4939ms total)
T0194 8365:741 JLINK_ReadReg(R10)  returns 0x00000000 (0000ms, 4939ms total)
T0194 8365:741 JLINK_ReadReg(R11)  returns 0x00000000 (0000ms, 4939ms total)
T0194 8365:741 JLINK_ReadReg(R12)  returns 0x00000000 (0000ms, 4939ms total)
T0194 8365:741 JLINK_ReadReg(R13 (SP))  returns 0x200007E0 (0000ms, 4939ms total)
T0194 8365:741 JLINK_ReadReg(R14)  returns 0xFFFFFFFF (0000ms, 4939ms total)
T0194 8365:741 JLINK_ReadReg(R15 (PC))  returns 0x08006E24 (0000ms, 4939ms total)
T0194 8365:741 JLINK_ReadReg(XPSR)  returns 0x01000000 (0000ms, 4939ms total)
T0194 8365:741 JLINK_ReadReg(MSP)  returns 0x200007E0 (0000ms, 4939ms total)
T0194 8365:741 JLINK_ReadReg(PSP)  returns 0x00000000 (0000ms, 4939ms total)
T0194 8365:741 JLINK_ReadReg(CFBP)  returns 0x00000000 (0000ms, 4939ms total)
T0194 8365:741 JLINK_ReadReg(FPSCR)  returns 0x00000000 (0005ms, 4944ms total)
T0194 8365:746 JLINK_ReadReg(FPS0)  returns 0x00000000 (0000ms, 4944ms total)
T0194 8365:746 JLINK_ReadReg(FPS1)  returns 0x00000000 (0000ms, 4944ms total)
T0194 8365:746 JLINK_ReadReg(FPS2)  returns 0x00000000 (0000ms, 4944ms total)
T0194 8365:746 JLINK_ReadReg(FPS3)  returns 0x00000000 (0000ms, 4944ms total)
T0194 8365:746 JLINK_ReadReg(FPS4)  returns 0x00000000 (0000ms, 4944ms total)
T0194 8365:746 JLINK_ReadReg(FPS5)  returns 0x00000000 (0000ms, 4944ms total)
T0194 8365:746 JLINK_ReadReg(FPS6)  returns 0x00000000 (0000ms, 4944ms total)
T0194 8365:746 JLINK_ReadReg(FPS7)  returns 0x00000000 (0000ms, 4944ms total)
T0194 8365:746 JLINK_ReadReg(FPS8)  returns 0x00000000 (0000ms, 4944ms total)
T0194 8365:746 JLINK_ReadReg(FPS9)  returns 0x00000000 (0000ms, 4944ms total)
T0194 8365:746 JLINK_ReadReg(FPS10)  returns 0x00000000 (0000ms, 4944ms total)
T0194 8365:746 JLINK_ReadReg(FPS11)  returns 0x00000000 (0000ms, 4944ms total)
T0194 8365:746 JLINK_ReadReg(FPS12)  returns 0x00000000 (0000ms, 4944ms total)
T0194 8365:746 JLINK_ReadReg(FPS13)  returns 0x00000000 (0000ms, 4944ms total)
T0194 8365:746 JLINK_ReadReg(FPS14)  returns 0x00000000 (0000ms, 4944ms total)
T0194 8365:746 JLINK_ReadReg(FPS15)  returns 0x00000000 (0000ms, 4944ms total)
T0194 8365:746 JLINK_ReadReg(FPS16)  returns 0x00000000 (0000ms, 4944ms total)
T0194 8365:746 JLINK_ReadReg(FPS17)  returns 0x00000000 (0000ms, 4944ms total)
T0194 8365:746 JLINK_ReadReg(FPS18)  returns 0x00000000 (0000ms, 4944ms total)
T0194 8365:746 JLINK_ReadReg(FPS19)  returns 0x00000000 (0000ms, 4944ms total)
T0194 8365:746 JLINK_ReadReg(FPS20)  returns 0x00000000 (0000ms, 4944ms total)
T0194 8365:746 JLINK_ReadReg(FPS21)  returns 0x00000000 (0000ms, 4944ms total)
T0194 8365:746 JLINK_ReadReg(FPS22)  returns 0x00000000 (0000ms, 4944ms total)
T0194 8365:746 JLINK_ReadReg(FPS23)  returns 0x00000000 (0000ms, 4944ms total)
T0194 8365:746 JLINK_ReadReg(FPS24)  returns 0x00000000 (0000ms, 4944ms total)
T0194 8365:746 JLINK_ReadReg(FPS25)  returns 0x00000000 (0001ms, 4945ms total)
T0194 8365:747 JLINK_ReadReg(FPS26)  returns 0x00000000 (0000ms, 4945ms total)
T0194 8365:747 JLINK_ReadReg(FPS27)  returns 0x00000000 (0000ms, 4945ms total)
T0194 8365:747 JLINK_ReadReg(FPS28)  returns 0x00000000 (0000ms, 4945ms total)
T0194 8365:747 JLINK_ReadReg(FPS29)  returns 0x00000000 (0000ms, 4945ms total)
T0194 8365:747 JLINK_ReadReg(FPS30)  returns 0x00000000 (0000ms, 4945ms total)
T0194 8365:747 JLINK_ReadReg(FPS31)  returns 0x00000000 (0000ms, 4945ms total)
T3830 8365:863 JLINK_ReadMemEx(0x08006E24, 0x0002 Bytes, ..., AccessWidth = 33554432)Mis-aligned memory read: Address: 0x08006E24, NumBytes: 2, Alignment: 2 (Halfword-aligned)
  ***** Mis-aligned memory read: Address: 0x08006E24, NumBytes: 2, Alignment: 2 (Halfword-aligned) -- Read from C cache (2 bytes @ 0x08006E24) - Data: 09 48  returns 0x02 (0000ms, 4945ms total)
T3830 8365:863 JLINK_SetBPEx(Addr = 0x0800035E, Type = 0xFFFFFFF2)  returns 0x00000001 (0000ms, 4945ms total)
T3830 8365:863 JLINK_SetBPEx(Addr = 0x080004A2, Type = 0xFFFFFFF2)  returns 0x00000002 (0000ms, 4945ms total)
T3830 8365:863 JLINK_SetBPEx(Addr = 0x0800048E, Type = 0xFFFFFFF2)  returns 0x00000003 (0000ms, 4945ms total)
T3830 8365:863 JLINK_SetBPEx(Addr = 0x080003AE, Type = 0xFFFFFFF2)  returns 0x00000004 (0000ms, 4945ms total)
T3830 8365:863 JLINK_Go() -- CPU_WriteMem(4 bytes @ 0xE0002000) -- CPU_WriteMem(4 bytes @ 0xE0002000) -- CPU_WriteMem(4 bytes @ 0xE0002000) -- CPU_WriteMem(4 bytes @ 0xE0002000) -- CPU_WriteMem(4 bytes @ 0xE0002008) -- CPU_WriteMem(4 bytes @ 0xE000200C) -- CPU_WriteMem(4 bytes @ 0xE0002010) -- CPU_WriteMem(4 bytes @ 0xE0002014) -- CPU_WriteMem(4 bytes @ 0xE0002018) -- CPU_WriteMem(4 bytes @ 0xE000201C) -- CPU_WriteMem(4 bytes @ 0xE0001004) (0006ms, 4951ms total)
T3830 8365:970 JLINK_IsHalted()  returns TRUE (0003ms, 4954ms total)
T3830 8365:973 JLINK_Halt()  returns 0x00 (0000ms, 4951ms total)
T3830 8365:973 JLINK_IsHalted()  returns TRUE (0000ms, 4951ms total)
T3830 8365:973 JLINK_IsHalted()  returns TRUE (0000ms, 4951ms total)
T3830 8365:973 JLINK_IsHalted()  returns TRUE (0000ms, 4951ms total)
T3830 8365:973 JLINK_ReadReg(R15 (PC))  returns 0x0800035E (0000ms, 4951ms total)
T3830 8365:973 JLINK_ReadReg(XPSR)  returns 0x21000000 (0000ms, 4951ms total)
T3830 8365:973 JLINK_ClrBPEx(BPHandle = 0x00000001)  returns 0x00 (0000ms, 4951ms total)
T3830 8365:973 JLINK_ClrBPEx(BPHandle = 0x00000002)  returns 0x00 (0000ms, 4951ms total)
T3830 8365:973 JLINK_ClrBPEx(BPHandle = 0x00000003)  returns 0x00 (0000ms, 4951ms total)
T3830 8365:973 JLINK_ClrBPEx(BPHandle = 0x00000004)  returns 0x00 (0000ms, 4951ms total)
T3830 8365:973 JLINK_ReadMemU32(0xE000ED30, 0x0001 Items, ...) -- CPU_ReadMem(4 bytes @ 0xE000ED30) - Data: 03 00 00 00  returns 0x01 (0001ms, 4952ms total)
T3830 8365:974 JLINK_ReadMemU32(0xE0001028, 0x0001 Items, ...) -- CPU_ReadMem(4 bytes @ 0xE0001028) - Data: 00 00 00 00  returns 0x01 (0000ms, 4952ms total)
T3830 8365:974 JLINK_ReadMemU32(0xE0001038, 0x0001 Items, ...) -- CPU_ReadMem(4 bytes @ 0xE0001038) - Data: 00 02 00 00  returns 0x01 (0000ms, 4952ms total)
T3830 8365:975 JLINK_ReadMemU32(0xE0001048, 0x0001 Items, ...) -- CPU_ReadMem(4 bytes @ 0xE0001048) - Data: 00 00 00 00  returns 0x01 (0000ms, 4952ms total)
T3830 8365:975 JLINK_ReadMemU32(0xE0001058, 0x0001 Items, ...) -- CPU_ReadMem(4 bytes @ 0xE0001058) - Data: 00 00 00 00  returns 0x01 (0000ms, 4952ms total)
T3830 8365:976 JLINK_ReadReg(R0)  returns 0x200001E0 (0000ms, 4952ms total)
T3830 8365:976 JLINK_ReadReg(R1)  returns 0x200003E0 (0000ms, 4952ms total)
T3830 8365:976 JLINK_ReadReg(R2)  returns 0x200003E0 (0000ms, 4952ms total)
T3830 8365:976 JLINK_ReadReg(R3)  returns 0x200003E0 (0000ms, 4952ms total)
T3830 8365:976 JLINK_ReadReg(R4)  returns 0x00000000 (0000ms, 4952ms total)
T3830 8365:976 JLINK_ReadReg(R5)  returns 0x2000017C (0000ms, 4952ms total)
T3830 8365:976 JLINK_ReadReg(R6)  returns 0x00000000 (0000ms, 4952ms total)
T3830 8365:976 JLINK_ReadReg(R7)  returns 0x00000000 (0000ms, 4952ms total)
T3830 8365:976 JLINK_ReadReg(R8)  returns 0x00000000 (0000ms, 4952ms total)
T3830 8365:976 JLINK_ReadReg(R9)  returns 0x00000000 (0000ms, 4952ms total)
T3830 8365:976 JLINK_ReadReg(R10)  returns 0x0800C310 (0000ms, 4952ms total)
T3830 8365:976 JLINK_ReadReg(R11)  returns 0x00000000 (0000ms, 4952ms total)
T3830 8365:976 JLINK_ReadReg(R12)  returns 0x200001BC (0000ms, 4952ms total)
T3830 8365:976 JLINK_ReadReg(R13 (SP))  returns 0x200007E0 (0000ms, 4952ms total)
T3830 8365:976 JLINK_ReadReg(R14)  returns 0x08000221 (0000ms, 4952ms total)
T3830 8365:976 JLINK_ReadReg(R15 (PC))  returns 0x0800035E (0000ms, 4952ms total)
T3830 8365:976 JLINK_ReadReg(XPSR)  returns 0x21000000 (0000ms, 4952ms total)
T3830 8365:976 JLINK_ReadReg(MSP)  returns 0x200007E0 (0000ms, 4952ms total)
T3830 8365:976 JLINK_ReadReg(PSP)  returns 0x00000000 (0000ms, 4952ms total)
T3830 8365:976 JLINK_ReadReg(CFBP)  returns 0x04000000 (0000ms, 4952ms total)
T3830 8365:976 JLINK_ReadReg(FPSCR)  returns 0x03000000 (0005ms, 4957ms total)
T3830 8365:981 JLINK_ReadReg(FPS0)  returns 0x00000000 (0000ms, 4957ms total)
T3830 8365:981 JLINK_ReadReg(FPS1)  returns 0x00000000 (0000ms, 4957ms total)
T3830 8365:981 JLINK_ReadReg(FPS2)  returns 0x00000000 (0000ms, 4957ms total)
T3830 8365:981 JLINK_ReadReg(FPS3)  returns 0x00000000 (0000ms, 4957ms total)
T3830 8365:981 JLINK_ReadReg(FPS4)  returns 0x00000000 (0000ms, 4957ms total)
T3830 8365:981 JLINK_ReadReg(FPS5)  returns 0x00000000 (0000ms, 4957ms total)
T3830 8365:981 JLINK_ReadReg(FPS6)  returns 0x00000000 (0000ms, 4957ms total)
T3830 8365:981 JLINK_ReadReg(FPS7)  returns 0x00000000 (0000ms, 4957ms total)
T3830 8365:981 JLINK_ReadReg(FPS8)  returns 0x00000000 (0000ms, 4957ms total)
T3830 8365:981 JLINK_ReadReg(FPS9)  returns 0x00000000 (0000ms, 4957ms total)
T3830 8365:981 JLINK_ReadReg(FPS10)  returns 0x00000000 (0000ms, 4957ms total)
T3830 8365:981 JLINK_ReadReg(FPS11)  returns 0x00000000 (0000ms, 4957ms total)
T3830 8365:981 JLINK_ReadReg(FPS12)  returns 0x00000000 (0000ms, 4957ms total)
T3830 8365:981 JLINK_ReadReg(FPS13)  returns 0x00000000 (0000ms, 4957ms total)
T3830 8365:981 JLINK_ReadReg(FPS14)  returns 0x00000000 (0000ms, 4957ms total)
T3830 8365:981 JLINK_ReadReg(FPS15)  returns 0x00000000 (0000ms, 4957ms total)
T3830 8365:981 JLINK_ReadReg(FPS16)  returns 0x00000000 (0000ms, 4957ms total)
T3830 8365:981 JLINK_ReadReg(FPS17)  returns 0x00000000 (0000ms, 4957ms total)
T3830 8365:981 JLINK_ReadReg(FPS18)  returns 0x00000000 (0000ms, 4957ms total)
T3830 8365:981 JLINK_ReadReg(FPS19)  returns 0x00000000 (0000ms, 4957ms total)
T3830 8365:981 JLINK_ReadReg(FPS20)  returns 0x00000000 (0000ms, 4957ms total)
T3830 8365:981 JLINK_ReadReg(FPS21)  returns 0x00000000 (0000ms, 4957ms total)
T3830 8365:981 JLINK_ReadReg(FPS22)  returns 0x00000000 (0000ms, 4957ms total)
T3830 8365:981 JLINK_ReadReg(FPS23)  returns 0x00000000 (0000ms, 4957ms total)
T3830 8365:981 JLINK_ReadReg(FPS24)  returns 0x00000000 (0000ms, 4957ms total)
T3830 8365:981 JLINK_ReadReg(FPS25)  returns 0x00000000 (0000ms, 4957ms total)
T3830 8365:981 JLINK_ReadReg(FPS26)  returns 0x00000000 (0000ms, 4957ms total)
T3830 8365:981 JLINK_ReadReg(FPS27)  returns 0x00000000 (0000ms, 4957ms total)
T3830 8365:981 JLINK_ReadReg(FPS28)  returns 0x00000000 (0000ms, 4957ms total)
T3830 8365:981 JLINK_ReadReg(FPS29)  returns 0x00000000 (0000ms, 4957ms total)
T3830 8365:981 JLINK_ReadReg(FPS30)  returns 0x00000000 (0000ms, 4957ms total)
T3830 8365:981 JLINK_ReadReg(FPS31)  returns 0x00000000 (0000ms, 4957ms total)
T0194 8365:982 JLINK_ReadMemEx(0x20000790, 0x0008 Bytes, ..., AccessWidth = 33554432)Mis-aligned memory read: Address: 0x20000790, NumBytes: 8, Alignment: 2 (Halfword-aligned)
  ***** Mis-aligned memory read: Address: 0x20000790, NumBytes: 8, Alignment: 2 (Halfword-aligned) -- CPU_ReadMem(64 bytes @ 0x20000780) -- Updating C cache (64 bytes @ 0x20000780) -- Read from C cache (8 bytes @ 0x20000790) - Data: 00 00 00 00 00 00 00 00  returns 0x08 (0001ms, 4958ms total)
T0194 8365:983 JLINK_ReadMemEx(0x20000788, 0x0008 Bytes, ..., AccessWidth = 33554432)Mis-aligned memory read: Address: 0x20000788, NumBytes: 8, Alignment: 2 (Halfword-aligned)
  ***** Mis-aligned memory read: Address: 0x20000788, NumBytes: 8, Alignment: 2 (Halfword-aligned) -- Read from C cache (8 bytes @ 0x20000788) - Data: 00 00 00 00 00 00 00 00  returns 0x08 (0000ms, 4958ms total)
T0194 8365:983 JLINK_ReadMemEx(0x20000778, 0x0008 Bytes, ..., AccessWidth = 33554432)Mis-aligned memory read: Address: 0x20000778, NumBytes: 8, Alignment: 2 (Halfword-aligned)
  ***** Mis-aligned memory read: Address: 0x20000778, NumBytes: 8, Alignment: 2 (Halfword-aligned) -- CPU_ReadMem(64 bytes @ 0x20000740) -- Updating C cache (64 bytes @ 0x20000740) -- Read from C cache (8 bytes @ 0x20000778) - Data: 00 00 00 00 00 00 00 00  returns 0x08 (0001ms, 4959ms total)
T0194 8365:990 JLINK_ReadMemEx(0x20000790, 0x0008 Bytes, ..., AccessWidth = 33554432)Mis-aligned memory read: Address: 0x20000790, NumBytes: 8, Alignment: 2 (Halfword-aligned)
  ***** Mis-aligned memory read: Address: 0x20000790, NumBytes: 8, Alignment: 2 (Halfword-aligned) -- Read from C cache (8 bytes @ 0x20000790) - Data: 00 00 00 00 00 00 00 00  returns 0x08 (0001ms, 4960ms total)
T0194 8365:991 JLINK_ReadMemEx(0x20000788, 0x0008 Bytes, ..., AccessWidth = 33554432)Mis-aligned memory read: Address: 0x20000788, NumBytes: 8, Alignment: 2 (Halfword-aligned)
  ***** Mis-aligned memory read: Address: 0x20000788, NumBytes: 8, Alignment: 2 (Halfword-aligned) -- Read from C cache (8 bytes @ 0x20000788) - Data: 00 00 00 00 00 00 00 00  returns 0x08 (0000ms, 4960ms total)
T0194 8365:991 JLINK_ReadMemEx(0x20000778, 0x0008 Bytes, ..., AccessWidth = 33554432)Mis-aligned memory read: Address: 0x20000778, NumBytes: 8, Alignment: 2 (Halfword-aligned)
  ***** Mis-aligned memory read: Address: 0x20000778, NumBytes: 8, Alignment: 2 (Halfword-aligned) -- Read from C cache (8 bytes @ 0x20000778) - Data: 00 00 00 00 00 00 00 00  returns 0x08 (0000ms, 4960ms total)
T0194 8365:991 JLINK_ReadMemU32(0xE0001004, 0x0001 Items, ...) -- CPU_ReadMem(4 bytes @ 0xE0001004) - Data: C1 19 00 00  returns 0x01 (0000ms, 4960ms total)
T3830 8367:458 JLINK_ReadMemEx(0x0800035E, 0x0002 Bytes, ..., AccessWidth = 33554432)Mis-aligned memory read: Address: 0x0800035E, NumBytes: 2, Alignment: 2 (Halfword-aligned)
  ***** Mis-aligned memory read: Address: 0x0800035E, NumBytes: 2, Alignment: 2 (Halfword-aligned) -- CPU_ReadMem(64 bytes @ 0x08000340) -- Updating C cache (64 bytes @ 0x08000340) -- Read from C cache (2 bytes @ 0x0800035E) - Data: 2D ED  returns 0x02 (0003ms, 4963ms total)
T3830 8367:461 JLINK_SetBPEx(Addr = 0x080004A2, Type = 0xFFFFFFF2)  returns 0x00000005 (0000ms, 4963ms total)
T3830 8367:461 JLINK_SetBPEx(Addr = 0x0800048E, Type = 0xFFFFFFF2)  returns 0x00000006 (0000ms, 4963ms total)
T3830 8367:461 JLINK_SetBPEx(Addr = 0x080003AE, Type = 0xFFFFFFF2)  returns 0x00000007 (0000ms, 4963ms total)
T3830 8367:461 JLINK_Go() -- CPU_WriteMem(4 bytes @ 0xE0002000) -- CPU_WriteMem(4 bytes @ 0xE0002000) -- CPU_WriteMem(4 bytes @ 0xE0002000) -- CPU_WriteMem(4 bytes @ 0xE0002008) -- CPU_WriteMem(4 bytes @ 0xE000200C) -- CPU_WriteMem(4 bytes @ 0xE0002010) -- CPU_WriteMem(4 bytes @ 0xE0002014) (0005ms, 4968ms total)
T3830 8367:567 JLINK_IsHalted()  returns FALSE (0000ms, 4968ms total)
T3830 8367:668 JLINK_IsHalted()  returns TRUE (0004ms, 4972ms total)
T3830 8367:672 JLINK_Halt()  returns 0x00 (0000ms, 4968ms total)
T3830 8367:672 JLINK_IsHalted()  returns TRUE (0000ms, 4968ms total)
T3830 8367:672 JLINK_IsHalted()  returns TRUE (0000ms, 4968ms total)
T3830 8367:672 JLINK_IsHalted()  returns TRUE (0000ms, 4968ms total)
T3830 8367:672 JLINK_ReadReg(R15 (PC))  returns 0x080003AE (0000ms, 4968ms total)
T3830 8367:672 JLINK_ReadReg(XPSR)  returns 0x61000000 (0000ms, 4968ms total)
T3830 8367:672 JLINK_ClrBPEx(BPHandle = 0x00000005)  returns 0x00 (0000ms, 4968ms total)
T3830 8367:672 JLINK_ClrBPEx(BPHandle = 0x00000006)  returns 0x00 (0000ms, 4968ms total)
T3830 8367:672 JLINK_ClrBPEx(BPHandle = 0x00000007)  returns 0x00 (0000ms, 4968ms total)
T3830 8367:672 JLINK_ReadMemU32(0xE000ED30, 0x0001 Items, ...) -- CPU_ReadMem(4 bytes @ 0xE000ED30) - Data: 03 00 00 00  returns 0x01 (0001ms, 4969ms total)
T3830 8367:673 JLINK_ReadMemU32(0xE0001028, 0x0001 Items, ...) -- CPU_ReadMem(4 bytes @ 0xE0001028) - Data: 00 00 00 00  returns 0x01 (0001ms, 4970ms total)
T3830 8367:674 JLINK_ReadMemU32(0xE0001038, 0x0001 Items, ...) -- CPU_ReadMem(4 bytes @ 0xE0001038) - Data: 00 02 00 00  returns 0x01 (0000ms, 4970ms total)
T3830 8367:674 JLINK_ReadMemU32(0xE0001048, 0x0001 Items, ...) -- CPU_ReadMem(4 bytes @ 0xE0001048) - Data: 00 00 00 00  returns 0x01 (0001ms, 4971ms total)
T3830 8367:675 JLINK_ReadMemU32(0xE0001058, 0x0001 Items, ...) -- CPU_ReadMem(4 bytes @ 0xE0001058) - Data: 00 00 00 00  returns 0x01 (0001ms, 4972ms total)
T3830 8367:676 JLINK_ReadReg(R0)  returns 0x6C000080 (0000ms, 4972ms total)
T3830 8367:676 JLINK_ReadReg(R1)  returns 0x6C00007E (0000ms, 4972ms total)
T3830 8367:676 JLINK_ReadReg(R2)  returns 0x6C000000 (0000ms, 4972ms total)
T3830 8367:676 JLINK_ReadReg(R3)  returns 0x00000000 (0000ms, 4972ms total)
T3830 8367:676 JLINK_ReadReg(R4)  returns 0x00000000 (0000ms, 4972ms total)
T3830 8367:676 JLINK_ReadReg(R5)  returns 0x2000017C (0000ms, 4972ms total)
T3830 8367:676 JLINK_ReadReg(R6)  returns 0x00000005 (0000ms, 4972ms total)
T3830 8367:676 JLINK_ReadReg(R7)  returns 0x00000000 (0000ms, 4972ms total)
T3830 8367:676 JLINK_ReadReg(R8)  returns 0x00000004 (0000ms, 4972ms total)
T3830 8367:676 JLINK_ReadReg(R9)  returns 0x00000000 (0000ms, 4972ms total)
T3830 8367:676 JLINK_ReadReg(R10)  returns 0x0800C310 (0000ms, 4972ms total)
T3830 8367:676 JLINK_ReadReg(R11)  returns 0x00000000 (0000ms, 4972ms total)
T3830 8367:676 JLINK_ReadReg(R12)  returns 0x00000150 (0000ms, 4972ms total)
T3830 8367:676 JLINK_ReadReg(R13 (SP))  returns 0x20000768 (0000ms, 4972ms total)
T3830 8367:677 JLINK_ReadReg(R14)  returns 0x08001947 (0000ms, 4973ms total)
T3830 8367:677 JLINK_ReadReg(R15 (PC))  returns 0x080003AE (0000ms, 4973ms total)
T3830 8367:677 JLINK_ReadReg(XPSR)  returns 0x61000000 (0000ms, 4973ms total)
T3830 8367:677 JLINK_ReadReg(MSP)  returns 0x20000768 (0000ms, 4973ms total)
T3830 8367:677 JLINK_ReadReg(PSP)  returns 0x00000000 (0000ms, 4973ms total)
T3830 8367:677 JLINK_ReadReg(CFBP)  returns 0x04000000 (0000ms, 4973ms total)
T3830 8367:677 JLINK_ReadReg(FPSCR)  returns 0x03000000 (0005ms, 4978ms total)
T3830 8367:682 JLINK_ReadReg(FPS0)  returns 0x00000000 (0000ms, 4978ms total)
T3830 8367:682 JLINK_ReadReg(FPS1)  returns 0x00000000 (0000ms, 4978ms total)
T3830 8367:682 JLINK_ReadReg(FPS2)  returns 0x00000000 (0000ms, 4978ms total)
T3830 8367:682 JLINK_ReadReg(FPS3)  returns 0x00000000 (0000ms, 4978ms total)
T3830 8367:682 JLINK_ReadReg(FPS4)  returns 0x00000000 (0000ms, 4978ms total)
T3830 8367:682 JLINK_ReadReg(FPS5)  returns 0x00000000 (0001ms, 4979ms total)
T3830 8367:683 JLINK_ReadReg(FPS6)  returns 0x00000000 (0000ms, 4979ms total)
T3830 8367:683 JLINK_ReadReg(FPS7)  returns 0x00000000 (0000ms, 4979ms total)
T3830 8367:683 JLINK_ReadReg(FPS8)  returns 0x00000000 (0000ms, 4979ms total)
T3830 8367:683 JLINK_ReadReg(FPS9)  returns 0x00000000 (0000ms, 4979ms total)
T3830 8367:683 JLINK_ReadReg(FPS10)  returns 0x00000000 (0000ms, 4979ms total)
T3830 8367:683 JLINK_ReadReg(FPS11)  returns 0x00000000 (0000ms, 4979ms total)
T3830 8367:683 JLINK_ReadReg(FPS12)  returns 0x00000000 (0000ms, 4979ms total)
T3830 8367:683 JLINK_ReadReg(FPS13)  returns 0x00000000 (0000ms, 4979ms total)
T3830 8367:683 JLINK_ReadReg(FPS14)  returns 0x00000000 (0000ms, 4979ms total)
T3830 8367:683 JLINK_ReadReg(FPS15)  returns 0x00000000 (0000ms, 4979ms total)
T3830 8367:683 JLINK_ReadReg(FPS16)  returns 0x00000000 (0000ms, 4979ms total)
T3830 8367:683 JLINK_ReadReg(FPS17)  returns 0x00000000 (0000ms, 4979ms total)
T3830 8367:683 JLINK_ReadReg(FPS18)  returns 0x00000000 (0000ms, 4979ms total)
T3830 8367:683 JLINK_ReadReg(FPS19)  returns 0x00000000 (0000ms, 4979ms total)
T3830 8367:683 JLINK_ReadReg(FPS20)  returns 0x00000000 (0000ms, 4979ms total)
T3830 8367:683 JLINK_ReadReg(FPS21)  returns 0x00000000 (0000ms, 4979ms total)
T3830 8367:683 JLINK_ReadReg(FPS22)  returns 0x00000000 (0000ms, 4979ms total)
T3830 8367:683 JLINK_ReadReg(FPS23)  returns 0x00000000 (0000ms, 4979ms total)
T3830 8367:683 JLINK_ReadReg(FPS24)  returns 0x00000000 (0000ms, 4979ms total)
T3830 8367:683 JLINK_ReadReg(FPS25)  returns 0x00000000 (0000ms, 4979ms total)
T3830 8367:683 JLINK_ReadReg(FPS26)  returns 0x00000000 (0000ms, 4979ms total)
T3830 8367:683 JLINK_ReadReg(FPS27)  returns 0x00000000 (0001ms, 4980ms total)
T3830 8367:684 JLINK_ReadReg(FPS28)  returns 0x00000000 (0000ms, 4980ms total)
T3830 8367:684 JLINK_ReadReg(FPS29)  returns 0x00000000 (0000ms, 4980ms total)
T3830 8367:684 JLINK_ReadReg(FPS30)  returns 0x00000000 (0000ms, 4980ms total)
T3830 8367:684 JLINK_ReadReg(FPS31)  returns 0x00000000 (0000ms, 4980ms total)
T0194 8367:684 JLINK_ReadMemEx(0x20000790, 0x0008 Bytes, ..., AccessWidth = 33554432)Mis-aligned memory read: Address: 0x20000790, NumBytes: 8, Alignment: 2 (Halfword-aligned)
  ***** Mis-aligned memory read: Address: 0x20000790, NumBytes: 8, Alignment: 2 (Halfword-aligned) -- CPU_ReadMem(64 bytes @ 0x20000780) -- Updating C cache (64 bytes @ 0x20000780) -- Read from C cache (8 bytes @ 0x20000790) - Data: 00 00 00 00 00 00 00 00  returns 0x08 (0002ms, 4982ms total)
T0194 8367:686 JLINK_ReadMemEx(0x20000788, 0x0008 Bytes, ..., AccessWidth = 33554432)Mis-aligned memory read: Address: 0x20000788, NumBytes: 8, Alignment: 2 (Halfword-aligned)
  ***** Mis-aligned memory read: Address: 0x20000788, NumBytes: 8, Alignment: 2 (Halfword-aligned) -- Read from C cache (8 bytes @ 0x20000788) - Data: 01 00 00 00 00 00 00 00  returns 0x08 (0000ms, 4982ms total)
T0194 8367:686 JLINK_ReadMemEx(0x20000778, 0x0008 Bytes, ..., AccessWidth = 33554432)Mis-aligned memory read: Address: 0x20000778, NumBytes: 8, Alignment: 2 (Halfword-aligned)
  ***** Mis-aligned memory read: Address: 0x20000778, NumBytes: 8, Alignment: 2 (Halfword-aligned) -- CPU_ReadMem(64 bytes @ 0x20000740) -- Updating C cache (64 bytes @ 0x20000740) -- Read from C cache (8 bytes @ 0x20000778) - Data: 03 00 00 00 00 00 00 00  returns 0x08 (0001ms, 4983ms total)
T0194 8367:687 JLINK_ReadMemU32(0xE0001004, 0x0001 Items, ...) -- CPU_ReadMem(4 bytes @ 0xE0001004) - Data: 49 6F D5 01  returns 0x01 (0001ms, 4984ms total)
T0194 8367:693 JLINK_ReadMemEx(0x080003AE, 0x0002 Bytes, ..., AccessWidth = 33554432)Mis-aligned memory read: Address: 0x080003AE, NumBytes: 2, Alignment: 2 (Halfword-aligned)
  ***** Mis-aligned memory read: Address: 0x080003AE, NumBytes: 2, Alignment: 2 (Halfword-aligned) -- CPU_ReadMem(64 bytes @ 0x08000380) -- Updating C cache (64 bytes @ 0x08000380) -- Read from C cache (2 bytes @ 0x080003AE) - Data: 4F F6  returns 0x02 (0002ms, 4986ms total)
T0194 8367:695 JLINK_ReadMemEx(0x080003B0, 0x003C Bytes, ..., AccessWidth = 33554432)Mis-aligned memory read: Address: 0x080003B0, NumBytes: 60, Alignment: 2 (Halfword-aligned)
  ***** Mis-aligned memory read: Address: 0x080003B0, NumBytes: 60, Alignment: 2 (Halfword-aligned) -- CPU_ReadMem(64 bytes @ 0x080003C0) -- Updating C cache (64 bytes @ 0x080003C0) -- Read from C cache (60 bytes @ 0x080003B0) - Data: FF 70 01 F0 9E FA 40 F2 CF 10 A0 49 08 80 A0 A0 ...  returns 0x3C (0001ms, 4987ms total)
T0194 8367:696 JLINK_ReadMemEx(0x080003B0, 0x0002 Bytes, ..., AccessWidth = 33554432)Mis-aligned memory read: Address: 0x080003B0, NumBytes: 2, Alignment: 2 (Halfword-aligned)
  ***** Mis-aligned memory read: Address: 0x080003B0, NumBytes: 2, Alignment: 2 (Halfword-aligned) -- Read from C cache (2 bytes @ 0x080003B0) - Data: FF 70  returns 0x02 (0000ms, 4987ms total)
T0194 8367:696 JLINK_ReadMemEx(0x080003B2, 0x0002 Bytes, ..., AccessWidth = 33554432)Mis-aligned memory read: Address: 0x080003B2, NumBytes: 2, Alignment: 2 (Halfword-aligned)
  ***** Mis-aligned memory read: Address: 0x080003B2, NumBytes: 2, Alignment: 2 (Halfword-aligned) -- Read from C cache (2 bytes @ 0x080003B2) - Data: 01 F0  returns 0x02 (0001ms, 4988ms total)
T0194 8367:697 JLINK_ReadMemEx(0x080003B4, 0x003C Bytes, ..., AccessWidth = 33554432)Mis-aligned memory read: Address: 0x080003B4, NumBytes: 60, Alignment: 2 (Halfword-aligned)
  ***** Mis-aligned memory read: Address: 0x080003B4, NumBytes: 60, Alignment: 2 (Halfword-aligned) -- Read from C cache (60 bytes @ 0x080003B4) - Data: 9E FA 40 F2 CF 10 A0 49 08 80 A0 A0 18 21 0B 46 ...  returns 0x3C (0000ms, 4988ms total)
T0194 8367:697 JLINK_ReadMemEx(0x080003B4, 0x0002 Bytes, ..., AccessWidth = 33554432)Mis-aligned memory read: Address: 0x080003B4, NumBytes: 2, Alignment: 2 (Halfword-aligned)
  ***** Mis-aligned memory read: Address: 0x080003B4, NumBytes: 2, Alignment: 2 (Halfword-aligned) -- Read from C cache (2 bytes @ 0x080003B4) - Data: 9E FA  returns 0x02 (0000ms, 4988ms total)
T0194 8367:697 JLINK_ReadMemEx(0x080003B6, 0x0002 Bytes, ..., AccessWidth = 33554432)Mis-aligned memory read: Address: 0x080003B6, NumBytes: 2, Alignment: 2 (Halfword-aligned)
  ***** Mis-aligned memory read: Address: 0x080003B6, NumBytes: 2, Alignment: 2 (Halfword-aligned) -- Read from C cache (2 bytes @ 0x080003B6) - Data: 40 F2  returns 0x02 (0000ms, 4988ms total)
T0194 8367:697 JLINK_ReadMemEx(0x080003B8, 0x003C Bytes, ..., AccessWidth = 33554432)Mis-aligned memory read: Address: 0x080003B8, NumBytes: 60, Alignment: 2 (Halfword-aligned)
  ***** Mis-aligned memory read: Address: 0x080003B8, NumBytes: 60, Alignment: 2 (Halfword-aligned) -- Read from C cache (60 bytes @ 0x080003B8) - Data: CF 10 A0 49 08 80 A0 A0 18 21 0B 46 4F F4 D2 72 ...  returns 0x3C (0000ms, 4988ms total)
T0194 8367:697 JLINK_ReadMemEx(0x080003B8, 0x0002 Bytes, ..., AccessWidth = 33554432)Mis-aligned memory read: Address: 0x080003B8, NumBytes: 2, Alignment: 2 (Halfword-aligned)
  ***** Mis-aligned memory read: Address: 0x080003B8, NumBytes: 2, Alignment: 2 (Halfword-aligned) -- Read from C cache (2 bytes @ 0x080003B8) - Data: CF 10  returns 0x02 (0000ms, 4988ms total)
T3830 8369:705 JLINK_ReadMemEx(0x080003AE, 0x0002 Bytes, ..., AccessWidth = 33554432)Mis-aligned memory read: Address: 0x080003AE, NumBytes: 2, Alignment: 2 (Halfword-aligned)
  ***** Mis-aligned memory read: Address: 0x080003AE, NumBytes: 2, Alignment: 2 (Halfword-aligned) -- Read from C cache (2 bytes @ 0x080003AE) - Data: 4F F6  returns 0x02 (0002ms, 4990ms total)
T3830 8369:707 JLINK_Step() -- Read from C cache (2 bytes @ 0x080003AE) -- Read from C cache (2 bytes @ 0x080003B0) -- Not simulated -- CPU_WriteMem(4 bytes @ 0xE0002008) -- CPU_WriteMem(4 bytes @ 0xE000200C) -- CPU_WriteMem(4 bytes @ 0xE0002010)  returns 0x00 (0006ms, 4996ms total)
T3830 8369:713 JLINK_ReadReg(R15 (PC))  returns 0x080003B2 (0000ms, 4996ms total)
T3830 8369:713 JLINK_ReadReg(XPSR)  returns 0x61000000 (0000ms, 4996ms total)
T3830 8369:713 JLINK_SetBPEx(Addr = 0x080004A2, Type = 0xFFFFFFF2)  returns 0x00000008 (0000ms, 4996ms total)
T3830 8369:713 JLINK_SetBPEx(Addr = 0x0800048E, Type = 0xFFFFFFF2)  returns 0x00000009 (0000ms, 4996ms total)
T3830 8369:713 JLINK_SetBPEx(Addr = 0x080003AE, Type = 0xFFFFFFF2)  returns 0x0000000A (0001ms, 4997ms total)
T3830 8369:714 JLINK_Go() -- CPU_WriteMem(4 bytes @ 0xE0002000) -- CPU_WriteMem(4 bytes @ 0xE0002000) -- CPU_WriteMem(4 bytes @ 0xE0002000) -- CPU_WriteMem(4 bytes @ 0xE0002008) -- CPU_WriteMem(4 bytes @ 0xE000200C) -- CPU_WriteMem(4 bytes @ 0xE0002010) (0003ms, 5000ms total)
T3830 8369:818 JLINK_IsHalted()  returns TRUE (0004ms, 5004ms total)
T3830 8369:822 JLINK_Halt()  returns 0x00 (0000ms, 5000ms total)
T3830 8369:822 JLINK_IsHalted()  returns TRUE (0000ms, 5000ms total)
T3830 8369:822 JLINK_IsHalted()  returns TRUE (0000ms, 5000ms total)
T3830 8369:822 JLINK_IsHalted()  returns TRUE (0000ms, 5000ms total)
T3830 8369:822 JLINK_ReadReg(R15 (PC))  returns 0x0800048E (0000ms, 5000ms total)
T3830 8369:822 JLINK_ReadReg(XPSR)  returns 0x81000000 (0000ms, 5000ms total)
T3830 8369:823 JLINK_ClrBPEx(BPHandle = 0x00000008)  returns 0x00 (0000ms, 5000ms total)
T3830 8369:823 JLINK_ClrBPEx(BPHandle = 0x00000009)  returns 0x00 (0000ms, 5000ms total)
T3830 8369:823 JLINK_ClrBPEx(BPHandle = 0x0000000A)  returns 0x00 (0000ms, 5000ms total)
T3830 8369:823 JLINK_ReadMemU32(0xE000ED30, 0x0001 Items, ...) -- CPU_ReadMem(4 bytes @ 0xE000ED30) - Data: 03 00 00 00  returns 0x01 (0000ms, 5000ms total)
T3830 8369:823 JLINK_ReadMemU32(0xE0001028, 0x0001 Items, ...) -- CPU_ReadMem(4 bytes @ 0xE0001028) - Data: 00 00 00 00  returns 0x01 (0001ms, 5001ms total)
T3830 8369:824 JLINK_ReadMemU32(0xE0001038, 0x0001 Items, ...) -- CPU_ReadMem(4 bytes @ 0xE0001038) - Data: 00 02 00 00  returns 0x01 (0001ms, 5002ms total)
T3830 8369:825 JLINK_ReadMemU32(0xE0001048, 0x0001 Items, ...) -- CPU_ReadMem(4 bytes @ 0xE0001048) - Data: 00 00 00 00  returns 0x01 (0000ms, 5002ms total)
T3830 8369:825 JLINK_ReadMemU32(0xE0001058, 0x0001 Items, ...) -- CPU_ReadMem(4 bytes @ 0xE0001058) - Data: 00 00 00 00  returns 0x01 (0001ms, 5003ms total)
T3830 8369:826 JLINK_ReadReg(R0)  returns 0x00000000 (0000ms, 5003ms total)
T3830 8369:826 JLINK_ReadReg(R1)  returns 0x000000A2 (0000ms, 5003ms total)
T3830 8369:826 JLINK_ReadReg(R2)  returns 0x0000FFFF (0000ms, 5003ms total)
T3830 8369:826 JLINK_ReadReg(R3)  returns 0x00000000 (0000ms, 5003ms total)
T3830 8369:826 JLINK_ReadReg(R4)  returns 0x00000000 (0000ms, 5003ms total)
T3830 8369:826 JLINK_ReadReg(R5)  returns 0x2000017C (0000ms, 5003ms total)
T3830 8369:826 JLINK_ReadReg(R6)  returns 0x00000005 (0000ms, 5003ms total)
T3830 8369:826 JLINK_ReadReg(R7)  returns 0x00000000 (0000ms, 5003ms total)
T3830 8369:826 JLINK_ReadReg(R8)  returns 0x00000004 (0000ms, 5003ms total)
T3830 8369:826 JLINK_ReadReg(R9)  returns 0x00000000 (0001ms, 5004ms total)
T3830 8369:827 JLINK_ReadReg(R10)  returns 0x0800C310 (0000ms, 5004ms total)
T3830 8369:827 JLINK_ReadReg(R11)  returns 0x00000000 (0000ms, 5004ms total)
T3830 8369:827 JLINK_ReadReg(R12)  returns 0x0000000C (0000ms, 5004ms total)
T3830 8369:827 JLINK_ReadReg(R13 (SP))  returns 0x20000768 (0000ms, 5004ms total)
T3830 8369:827 JLINK_ReadReg(R14)  returns 0x080013DD (0000ms, 5004ms total)
T3830 8369:827 JLINK_ReadReg(R15 (PC))  returns 0x0800048E (0000ms, 5004ms total)
T3830 8369:827 JLINK_ReadReg(XPSR)  returns 0x81000000 (0000ms, 5004ms total)
T3830 8369:827 JLINK_ReadReg(MSP)  returns 0x20000768 (0000ms, 5004ms total)
T3830 8369:827 JLINK_ReadReg(PSP)  returns 0x00000000 (0000ms, 5004ms total)
T3830 8369:827 JLINK_ReadReg(CFBP)  returns 0x04000000 (0000ms, 5004ms total)
T3830 8369:827 JLINK_ReadReg(FPSCR)  returns 0x03000000 (0005ms, 5009ms total)
T3830 8369:832 JLINK_ReadReg(FPS0)  returns 0x00000000 (0000ms, 5009ms total)
T3830 8369:832 JLINK_ReadReg(FPS1)  returns 0x00000000 (0000ms, 5009ms total)
T3830 8369:832 JLINK_ReadReg(FPS2)  returns 0x00000000 (0000ms, 5009ms total)
T3830 8369:832 JLINK_ReadReg(FPS3)  returns 0x00000000 (0000ms, 5009ms total)
T3830 8369:832 JLINK_ReadReg(FPS4)  returns 0x00000000 (0000ms, 5009ms total)
T3830 8369:832 JLINK_ReadReg(FPS5)  returns 0x00000000 (0000ms, 5009ms total)
T3830 8369:832 JLINK_ReadReg(FPS6)  returns 0x00000000 (0000ms, 5009ms total)
T3830 8369:832 JLINK_ReadReg(FPS7)  returns 0x00000000 (0000ms, 5009ms total)
T3830 8369:832 JLINK_ReadReg(FPS8)  returns 0x00000000 (0000ms, 5009ms total)
T3830 8369:832 JLINK_ReadReg(FPS9)  returns 0x00000000 (0000ms, 5009ms total)
T3830 8369:832 JLINK_ReadReg(FPS10)  returns 0x00000000 (0000ms, 5009ms total)
T3830 8369:832 JLINK_ReadReg(FPS11)  returns 0x00000000 (0000ms, 5009ms total)
T3830 8369:832 JLINK_ReadReg(FPS12)  returns 0x00000000 (0000ms, 5009ms total)
T3830 8369:832 JLINK_ReadReg(FPS13)  returns 0x00000000 (0000ms, 5009ms total)
T3830 8369:832 JLINK_ReadReg(FPS14)  returns 0x00000000 (0000ms, 5009ms total)
T3830 8369:832 JLINK_ReadReg(FPS15)  returns 0x00000000 (0000ms, 5009ms total)
T3830 8369:832 JLINK_ReadReg(FPS16)  returns 0x00000000 (0000ms, 5009ms total)
T3830 8369:832 JLINK_ReadReg(FPS17)  returns 0x00000000 (0000ms, 5009ms total)
T3830 8369:832 JLINK_ReadReg(FPS18)  returns 0x00000000 (0000ms, 5009ms total)
T3830 8369:832 JLINK_ReadReg(FPS19)  returns 0x00000000 (0000ms, 5009ms total)
T3830 8369:832 JLINK_ReadReg(FPS20)  returns 0x00000000 (0000ms, 5009ms total)
T3830 8369:832 JLINK_ReadReg(FPS21)  returns 0x00000000 (0000ms, 5009ms total)
T3830 8369:832 JLINK_ReadReg(FPS22)  returns 0x00000000 (0000ms, 5009ms total)
T3830 8369:832 JLINK_ReadReg(FPS23)  returns 0x00000000 (0000ms, 5009ms total)
T3830 8369:832 JLINK_ReadReg(FPS24)  returns 0x00000000 (0000ms, 5009ms total)
T3830 8369:832 JLINK_ReadReg(FPS25)  returns 0x00000000 (0002ms, 5011ms total)
T3830 8369:834 JLINK_ReadReg(FPS26)  returns 0x00000000 (0000ms, 5011ms total)
T3830 8369:834 JLINK_ReadReg(FPS27)  returns 0x00000000 (0000ms, 5011ms total)
T3830 8369:834 JLINK_ReadReg(FPS28)  returns 0x00000000 (0000ms, 5011ms total)
T3830 8369:834 JLINK_ReadReg(FPS29)  returns 0x00000000 (0000ms, 5011ms total)
T3830 8369:834 JLINK_ReadReg(FPS30)  returns 0x00000000 (0000ms, 5011ms total)
T3830 8369:834 JLINK_ReadReg(FPS31)  returns 0x00000000 (0000ms, 5011ms total)
T0194 8369:834 JLINK_ReadMemEx(0x20000790, 0x0008 Bytes, ..., AccessWidth = 33554432)Mis-aligned memory read: Address: 0x20000790, NumBytes: 8, Alignment: 2 (Halfword-aligned)
  ***** Mis-aligned memory read: Address: 0x20000790, NumBytes: 8, Alignment: 2 (Halfword-aligned) -- CPU_ReadMem(64 bytes @ 0x20000780) -- Updating C cache (64 bytes @ 0x20000780) -- Read from C cache (8 bytes @ 0x20000790) - Data: 00 00 00 00 00 00 00 00  returns 0x08 (0002ms, 5013ms total)
T0194 8369:836 JLINK_ReadMemEx(0x20000788, 0x0008 Bytes, ..., AccessWidth = 33554432)Mis-aligned memory read: Address: 0x20000788, NumBytes: 8, Alignment: 2 (Halfword-aligned)
  ***** Mis-aligned memory read: Address: 0x20000788, NumBytes: 8, Alignment: 2 (Halfword-aligned) -- Read from C cache (8 bytes @ 0x20000788) - Data: 01 00 00 00 00 00 00 00  returns 0x08 (0000ms, 5013ms total)
T0194 8369:836 JLINK_ReadMemEx(0x20000778, 0x0008 Bytes, ..., AccessWidth = 33554432)Mis-aligned memory read: Address: 0x20000778, NumBytes: 8, Alignment: 2 (Halfword-aligned)
  ***** Mis-aligned memory read: Address: 0x20000778, NumBytes: 8, Alignment: 2 (Halfword-aligned) -- CPU_ReadMem(64 bytes @ 0x20000740) -- Updating C cache (64 bytes @ 0x20000740) -- Read from C cache (8 bytes @ 0x20000778) - Data: 03 00 00 00 00 00 00 00  returns 0x08 (0001ms, 5014ms total)
T0194 8369:837 JLINK_ReadMemU32(0xE0001004, 0x0001 Items, ...) -- CPU_ReadMem(4 bytes @ 0xE0001004) - Data: 74 E8 8D 02  returns 0x01 (0001ms, 5015ms total)
T3830 8370:904 JLINK_ReadMemEx(0x0800048E, 0x0002 Bytes, ..., AccessWidth = 33554432)Mis-aligned memory read: Address: 0x0800048E, NumBytes: 2, Alignment: 2 (Halfword-aligned)
  ***** Mis-aligned memory read: Address: 0x0800048E, NumBytes: 2, Alignment: 2 (Halfword-aligned) -- CPU_ReadMem(64 bytes @ 0x08000480) -- Updating C cache (64 bytes @ 0x08000480) -- Read from C cache (2 bytes @ 0x0800048E) - Data: 8A A0  returns 0x02 (0008ms, 5023ms total)
T3830 8370:913 JLINK_Step() -- Read from C cache (2 bytes @ 0x0800048E) -- Simulated  returns 0x00 (0000ms, 5023ms total)
T3830 8370:913 JLINK_ReadReg(R15 (PC))  returns 0x08000490 (0000ms, 5023ms total)
T3830 8370:913 JLINK_ReadReg(XPSR)  returns 0x81000000 (0000ms, 5023ms total)
T3830 8370:913 JLINK_SetBPEx(Addr = 0x080004A2, Type = 0xFFFFFFF2)  returns 0x0000000B (0000ms, 5023ms total)
T3830 8370:913 JLINK_SetBPEx(Addr = 0x0800048E, Type = 0xFFFFFFF2)  returns 0x0000000C (0000ms, 5023ms total)
T3830 8370:913 JLINK_SetBPEx(Addr = 0x080003AE, Type = 0xFFFFFFF2)  returns 0x0000000D (0000ms, 5023ms total)
T3830 8370:913 JLINK_Go() -- CPU_WriteMem(4 bytes @ 0xE0002000) -- CPU_WriteMem(4 bytes @ 0xE0002000) -- CPU_WriteMem(4 bytes @ 0xE0002000) -- CPU_WriteMem(4 bytes @ 0xE0001004) (0004ms, 5027ms total)
T3830 8371:018 JLINK_IsHalted()  returns TRUE (0003ms, 5030ms total)
T3830 8371:022 JLINK_Halt()  returns 0x00 (0000ms, 5027ms total)
T3830 8371:022 JLINK_IsHalted()  returns TRUE (0000ms, 5027ms total)
T3830 8371:022 JLINK_IsHalted()  returns TRUE (0000ms, 5027ms total)
T3830 8371:022 JLINK_IsHalted()  returns TRUE (0000ms, 5027ms total)
T3830 8371:022 JLINK_ReadReg(R15 (PC))  returns 0x080004A2 (0000ms, 5027ms total)
T3830 8371:022 JLINK_ReadReg(XPSR)  returns 0x81000000 (0000ms, 5027ms total)
T3830 8371:022 JLINK_ClrBPEx(BPHandle = 0x0000000B)  returns 0x00 (0000ms, 5027ms total)
T3830 8371:022 JLINK_ClrBPEx(BPHandle = 0x0000000C)  returns 0x00 (0000ms, 5027ms total)
T3830 8371:022 JLINK_ClrBPEx(BPHandle = 0x0000000D)  returns 0x00 (0000ms, 5027ms total)
T3830 8371:022 JLINK_ReadMemU32(0xE000ED30, 0x0001 Items, ...) -- CPU_ReadMem(4 bytes @ 0xE000ED30) - Data: 03 00 00 00  returns 0x01 (0001ms, 5028ms total)
T3830 8371:023 JLINK_ReadMemU32(0xE0001028, 0x0001 Items, ...) -- CPU_ReadMem(4 bytes @ 0xE0001028) - Data: 00 00 00 00  returns 0x01 (0002ms, 5030ms total)
T3830 8371:025 JLINK_ReadMemU32(0xE0001038, 0x0001 Items, ...) -- CPU_ReadMem(4 bytes @ 0xE0001038) - Data: 00 02 00 00  returns 0x01 (0001ms, 5031ms total)
T3830 8371:026 JLINK_ReadMemU32(0xE0001048, 0x0001 Items, ...) -- CPU_ReadMem(4 bytes @ 0xE0001048) - Data: 00 00 00 00  returns 0x01 (0000ms, 5031ms total)
T3830 8371:026 JLINK_ReadMemU32(0xE0001058, 0x0001 Items, ...) -- CPU_ReadMem(4 bytes @ 0xE0001058) - Data: 00 00 00 00  returns 0x01 (0001ms, 5032ms total)
T3830 8371:027 JLINK_ReadReg(R0)  returns 0x00000000 (0000ms, 5032ms total)
T3830 8371:027 JLINK_ReadReg(R1)  returns 0x000000AE (0000ms, 5032ms total)
T3830 8371:027 JLINK_ReadReg(R2)  returns 0x0000FFFF (0000ms, 5032ms total)
T3830 8371:027 JLINK_ReadReg(R3)  returns 0x00000000 (0000ms, 5032ms total)
T3830 8371:027 JLINK_ReadReg(R4)  returns 0x00000000 (0001ms, 5033ms total)
T3830 8371:028 JLINK_ReadReg(R5)  returns 0x2000017C (0000ms, 5033ms total)
T3830 8371:028 JLINK_ReadReg(R6)  returns 0x00000005 (0000ms, 5033ms total)
T3830 8371:028 JLINK_ReadReg(R7)  returns 0x00000000 (0000ms, 5033ms total)
T3830 8371:028 JLINK_ReadReg(R8)  returns 0x00000004 (0000ms, 5033ms total)
T3830 8371:028 JLINK_ReadReg(R9)  returns 0x00000000 (0000ms, 5033ms total)
T3830 8371:028 JLINK_ReadReg(R10)  returns 0x0800C310 (0000ms, 5033ms total)
